
T5460 000:291 SEGGER J-Link V4.96d Log File (0000ms, 0272ms total)
T5460 000:291 DLL Compiled: Jan 29 2015 11:45:37 (0000ms, 0272ms total)
T5460 000:291 Logging started @ 2021-08-12 10:16 (0000ms, 0272ms total)
T5460 000:291 JLINK_SetWarnOutHandler(...) (0000ms, 0272ms total)
T5460 000:291 JLINK_OpenEx(...)
Firmware: J-Link ARM V8 compiled Nov 28 2014 13:44:46
Hardware: V8.00
S/N: 58001139
Feature(s): RDI,FlashDL,FlashBP,JFlash  returns O.K. (0265ms, 0537ms total)
T5460 000:556 JLINK_SetErrorOutHandler(...) (0000ms, 0537ms total)
T5460 000:556 JLINK_ExecCommand("ProjectFile = "E:\工作\GD开发板\GD32F303\03例程\Project\22_TIMER_Breath_LED\MDK-ARM\JLinkSettings.ini"", ...)Device "UNSPECIFIED" selected.  returns 0x00 (0001ms, 0538ms total)
T5460 000:557 JLINK_ExecCommand("Device = GD32F303ZE", ...)Device "UNSPECIFIED" selected.  returns 0x00 (0001ms, 0539ms total)
T5460 000:558 JLINK_ExecCommand("DisableConnectionTimeout", ...)  returns 0x01 (0000ms, 0539ms total)
T5460 000:558 JLINK_GetHardwareVersion()  returns 0x13880 (0000ms, 0539ms total)
T5460 000:558 JLINK_GetDLLVersion()  returns 49604 (0000ms, 0539ms total)
T5460 000:558 JLINK_GetFirmwareString(...) (0000ms, 0539ms total)
T5460 000:558 JLINK_GetDLLVersion()  returns 49604 (0000ms, 0539ms total)
T5460 000:558 JLINK_GetCompileDateTime() (0000ms, 0539ms total)
T5460 000:558 JLINK_GetFirmwareString(...) (0000ms, 0539ms total)
T5460 000:559 JLINK_GetHardwareVersion()  returns 0x13880 (0000ms, 0539ms total)
T5460 000:560 JLINK_TIF_Select(JLINKARM_TIF_SWD)  returns 0x00 (0000ms, 0539ms total)
T5460 000:560 JLINK_SetSpeed(20000) (0001ms, 0540ms total)
T5460 000:561 JLINK_GetId() >0x108 TIF>Found SWD-DP with ID 0x2BA01477 >0x0D TIF> >0x21 TIF> >0x0D TIF> >0x28 TIF> >0x0D TIF> >0x28 TIF> >0x0D TIF> >0x21 TIF> >0x0D TIF> >0x28 TIF> >0x0D TIF> >0x21 TIF> >0x0D TIF> >0x21 TIF> >0x0D TIF> >0x21 TIF> >0x0D TIF> >0x21 TIF> >0x0D TIF> >0x28 TIF> >0x0D TIF> >0x28 TIF> >0x0D TIF> >0x21 TIF> >0x0D TIF> >0x28 TIF> >0x0D TIF> >0x28 TIF> >0x0D TIF> >0x28 TIF> >0x0D TIF> >0x21 TIF> >0x0D TIF> >0x21 TIF> >0x0D TIF> >0x28 TIF> >0x0D TIF> >0x21 TIF> >0x0D TIF>
 >0x21 TIF>Found Cortex-M4 r0p1, Little endian. -- CPU_WriteMem(4 bytes @ 0xE0002000) -- CPU_ReadMem(4 bytes @ 0xE000EDF0) -- CPU_ReadMem(4 bytes @ 0xE0002000)FPUnit: 6 code (BP) slots and 2 literal slots -- CPU_ReadMem(4 bytes @ 0xE000EDFC) -- CPU_ReadMem(4 bytes @ 0xE0001000) -- CPU_WriteMem(4 bytes @ 0xE0001000) -- CPU_ReadMem(4 bytes @ 0xE000ED88) -- CPU_WriteMem(4 bytes @ 0xE000ED88) -- CPU_ReadMem(4 bytes @ 0xE000ED88) -- CPU_WriteMem(4 bytes @ 0xE000ED88) -- CPU_ReadMem(4 bytes @ 0xE00FF010)
TPIU fitted. -- CPU_ReadMem(4 bytes @ 0xE00FF014)ETM fitted. -- CPU_ReadMem(4 bytes @ 0xE00FF018) >0x0D TIF> >0x21 TIF>  returns 0x2BA01477 (0020ms, 0560ms total)
T5460 000:581 JLINK_GetDLLVersion()  returns 49604 (0000ms, 0560ms total)
T5460 000:581 JLINK_CORE_GetFound()  returns 0xE0000FF (0000ms, 0560ms total)
T5460 000:581 JLINK_GetDebugInfo(0x100) -- Value=0xE00FF003  returns 0x00 (0000ms, 0560ms total)
T5460 000:581 JLINK_ReadMem (0xE00FF000, 0x0020 Bytes, ...) -- CPU is running -- CPU_ReadMem(32 bytes @ 0xE00FF000) - Data: 03 F0 F0 FF 03 20 F0 FF 03 30 F0 FF 03 10 F0 FF ...  returns 0x00 (0001ms, 0561ms total)
T5460 000:582 JLINK_ReadMem (0xE000EFF0, 0x0010 Bytes, ...) -- CPU is running -- CPU_ReadMem(16 bytes @ 0xE000EFF0) - Data: 0D 00 00 00 E0 00 00 00 05 00 00 00 B1 00 00 00  returns 0x00 (0000ms, 0561ms total)
T5460 000:582 JLINK_ReadMem (0xE000EFD0, 0x0020 Bytes, ...) -- CPU is running -- CPU_ReadMem(32 bytes @ 0xE000EFD0) - Data: 04 00 00 00 00 00 00 00 00 00 00 00 00 00 00 00 ...  returns 0x00 (0001ms, 0562ms total)
T5460 000:583 JLINK_ReadMem (0xE0001FF0, 0x0010 Bytes, ...) -- CPU is running -- CPU_ReadMem(16 bytes @ 0xE0001FF0) - Data: 0D 00 00 00 E0 00 00 00 05 00 00 00 B1 00 00 00  returns 0x00 (0000ms, 0562ms total)
T5460 000:583 JLINK_ReadMem (0xE0001FD0, 0x0020 Bytes, ...) -- CPU is running -- CPU_ReadMem(32 bytes @ 0xE0001FD0) - Data: 04 00 00 00 00 00 00 00 00 00 00 00 00 00 00 00 ...  returns 0x00 (0001ms, 0563ms total)
T5460 000:584 JLINK_ReadMem (0xE0002FF0, 0x0010 Bytes, ...) -- CPU is running -- CPU_ReadMem(16 bytes @ 0xE0002FF0) - Data: 0D 00 00 00 E0 00 00 00 05 00 00 00 B1 00 00 00  returns 0x00 (0001ms, 0564ms total)
T5460 000:585 JLINK_ReadMem (0xE0002FD0, 0x0020 Bytes, ...) -- CPU is running -- CPU_ReadMem(32 bytes @ 0xE0002FD0) - Data: 04 00 00 00 00 00 00 00 00 00 00 00 00 00 00 00 ...  returns 0x00 (0000ms, 0564ms total)
T5460 000:585 JLINK_ReadMem (0xE0000FF0, 0x0010 Bytes, ...) -- CPU is running -- CPU_ReadMem(16 bytes @ 0xE0000FF0) - Data: 0D 00 00 00 E0 00 00 00 05 00 00 00 B1 00 00 00  returns 0x00 (0001ms, 0565ms total)
T5460 000:586 JLINK_ReadMem (0xE0000FD0, 0x0020 Bytes, ...) -- CPU is running -- CPU_ReadMem(32 bytes @ 0xE0000FD0) - Data: 04 00 00 00 00 00 00 00 00 00 00 00 00 00 00 00 ...  returns 0x00 (0000ms, 0565ms total)
T5460 000:586 JLINK_ReadMem (0xE0040FF0, 0x0010 Bytes, ...) -- CPU is running -- CPU_ReadMem(16 bytes @ 0xE0040FF0) - Data: 0D 00 00 00 90 00 00 00 05 00 00 00 B1 00 00 00  returns 0x00 (0001ms, 0566ms total)
T5460 000:587 JLINK_ReadMem (0xE0040FD0, 0x0020 Bytes, ...) -- CPU is running -- CPU_ReadMem(32 bytes @ 0xE0040FD0) - Data: 04 00 00 00 00 00 00 00 00 00 00 00 00 00 00 00 ...  returns 0x00 (0000ms, 0566ms total)
T5460 000:587 JLINK_ReadMem (0xE0041FF0, 0x0010 Bytes, ...) -- CPU is running -- CPU_ReadMem(16 bytes @ 0xE0041FF0) - Data: 00 00 00 00 00 00 00 00 00 00 00 00 00 00 00 00  returns 0x00 (0001ms, 0567ms total)
T5460 000:588 JLINK_ReadMem (0xE0041FD0, 0x0020 Bytes, ...) -- CPU is running -- CPU_ReadMem(32 bytes @ 0xE0041FD0) - Data: 00 00 00 00 00 00 00 00 00 00 00 00 00 00 00 00 ...  returns 0x00 (0001ms, 0568ms total)
T5460 000:589 JLINK_ReadMemU32(0xE000EF40, 0x0001 Items, ...) -- CPU is running -- CPU_ReadMem(4 bytes @ 0xE000EF40) - Data: 21 00 11 10  returns 0x01 (0000ms, 0568ms total)
T5460 000:589 JLINK_ReadMemU32(0xE000EF44, 0x0001 Items, ...) -- CPU is running -- CPU_ReadMem(4 bytes @ 0xE000EF44) - Data: 11 00 00 11  returns 0x01 (0000ms, 0568ms total)
T5460 000:589 JLINK_ReadMemU32(0xE000ED00, 0x0001 Items, ...) -- CPU is running -- CPU_ReadMem(4 bytes @ 0xE000ED00) - Data: 41 C2 0F 41  returns 0x01 (0001ms, 0569ms total)
T5460 000:590 JLINK_SetResetType(JLINKARM_RESET_TYPE_NORMAL)  returns JLINKARM_RESET_TYPE_NORMAL (0000ms, 0569ms total)
T5460 000:590 JLINK_Reset() -- CPU is running -- CPU_WriteMem(4 bytes @ 0xE000EDF0) -- CPU is running -- CPU_WriteMem(4 bytes @ 0xE000EDFC) >0x35 TIF> -- CPU is running -- CPU_WriteMem(4 bytes @ 0xE000ED0C) -- CPU is running -- CPU_ReadMem(4 bytes @ 0xE000EDF0) -- CPU is running -- CPU_ReadMem(4 bytes @ 0xE000EDF0) -- CPU is running -- CPU_WriteMem(4 bytes @ 0xE000EDF0) -- CPU is running -- CPU_WriteMem(4 bytes @ 0xE000EDFC) -- CPU is running -- CPU_ReadMem(4 bytes @ 0xE000EDF0)
 -- CPU_WriteMem(4 bytes @ 0xE0002000) -- CPU_ReadMem(4 bytes @ 0xE000EDFC) -- CPU_ReadMem(4 bytes @ 0xE0001000) (0016ms, 0585ms total)
T5460 000:606 JLINK_ReadReg(R15 (PC))  returns 0x08000144 (0000ms, 0585ms total)
T5460 000:606 JLINK_ReadReg(XPSR)  returns 0x01000000 (0000ms, 0585ms total)
T5460 000:606 JLINK_Halt()  returns 0x00 (0000ms, 0585ms total)
T5460 000:606 JLINK_IsHalted()  returns TRUE (0000ms, 0585ms total)
T5460 000:606 JLINK_ReadMemU32(0xE000EDF0, 0x0001 Items, ...) -- CPU_ReadMem(4 bytes @ 0xE000EDF0) - Data: 03 00 03 00  returns 0x01 (0001ms, 0586ms total)
T5460 000:607 JLINK_WriteU32(0xE000EDF0, 0xA05F0003) -- CPU_WriteMem(4 bytes @ 0xE000EDF0)  returns 0x00 (0000ms, 0586ms total)
T5460 000:607 JLINK_WriteU32(0xE000EDFC, 0x01000000) -- CPU_WriteMem(4 bytes @ 0xE000EDFC)  returns 0x00 (0001ms, 0587ms total)
T5460 000:616 JLINK_GetHWStatus(...)  returns 0x00 (0001ms, 0588ms total)
T5460 000:619 JLINK_GetNumBPUnits(Type = 0xFFFFFF00)  returns 0x06 (0000ms, 0588ms total)
T5460 000:619 JLINK_GetNumBPUnits(Type = 0xF0)  returns 0x2000 (0000ms, 0588ms total)
T5460 000:619 JLINK_GetNumWPUnits()  returns 0x04 (0000ms, 0588ms total)
T5460 000:621 JLINK_GetSpeed()  returns 0xFA0 (0000ms, 0588ms total)
T5460 000:622 JLINK_ReadMemU32(0xE000E004, 0x0001 Items, ...) -- CPU_ReadMem(4 bytes @ 0xE000E004) - Data: 02 00 00 00  returns 0x01 (0000ms, 0588ms total)
T5460 000:622 JLINK_ReadMemU32(0xE000E004, 0x0001 Items, ...) -- CPU_ReadMem(4 bytes @ 0xE000E004) - Data: 02 00 00 00  returns 0x01 (0000ms, 0588ms total)
T5460 000:622 JLINK_WriteMem(0xE0001000, 0x001C Bytes, ...) - Data: 01 00 00 00 00 00 00 00 00 00 00 00 00 00 00 00 ... -- CPU_WriteMem(28 bytes @ 0xE0001000)  returns 0x1C (0001ms, 0589ms total)
T5460 000:623 JLINK_ReadMem (0xE0001000, 0x001C Bytes, ...) -- CPU_ReadMem(28 bytes @ 0xE0001000) - Data: 01 00 00 40 00 00 00 00 00 00 00 00 00 00 00 00 ...  returns 0x00 (0001ms, 0590ms total)
T5460 000:624 JLINK_ReadReg(R15 (PC))  returns 0x08000144 (0000ms, 0590ms total)
T5460 000:624 JLINK_ReadReg(XPSR)  returns 0x01000000 (0000ms, 0590ms total)
T5460 000:638 JLINK_ReadMem (0x08000000, 0x0A70 Bytes, ...) -- CPU_ReadMem(2672 bytes @ 0x08000000) - Data: 08 04 00 20 45 01 00 08 9B 01 00 08 93 01 00 08 ...  returns 0x00 (0019ms, 0609ms total)
T5460 000:719 JLINK_SetResetType(JLINKARM_RESET_TYPE_NORMAL)  returns JLINKARM_RESET_TYPE_NORMAL (0000ms, 0609ms total)
T5460 000:719 JLINK_Reset() -- CPU_WriteMem(4 bytes @ 0xE000EDF0) -- CPU_WriteMem(4 bytes @ 0xE000EDFC) >0x35 TIF> -- CPU_WriteMem(4 bytes @ 0xE000ED0C) -- CPU_ReadMem(4 bytes @ 0xE000EDF0) -- CPU_ReadMem(4 bytes @ 0xE000EDF0) -- CPU_WriteMem(4 bytes @ 0xE000EDF0) -- CPU_WriteMem(4 bytes @ 0xE000EDFC) -- CPU is running -- CPU_ReadMem(4 bytes @ 0xE000EDF0) -- CPU_WriteMem(4 bytes @ 0xE0002000) -- CPU_ReadMem(4 bytes @ 0xE000EDFC) -- CPU_ReadMem(4 bytes @ 0xE0001000) (0016ms, 0625ms total)
T5460 000:735 JLINK_ReadReg(R15 (PC))  returns 0x08000144 (0000ms, 0625ms total)
T5460 000:735 JLINK_ReadReg(XPSR)  returns 0x01000000 (0000ms, 0625ms total)
T5460 000:737 JLINK_ReadMem (0x08000144, 0x003C Bytes, ...) -- CPU_ReadMem(60 bytes @ 0x08000144) - Data: 06 48 80 47 06 48 00 47 FE E7 FE E7 FE E7 FE E7 ...  returns 0x00 (0001ms, 0626ms total)
T5460 001:430 JLINK_ReadMem (0x00000000, 0x004E Bytes, ...) -- CPU_ReadMem(78 bytes @ 0x00000000) - Data: 08 04 00 20 45 01 00 08 9B 01 00 08 93 01 00 08 ...  returns 0x00 (0001ms, 0627ms total)
T5460 001:990 JLINK_ReadMem (0x40004400, 0x0060 Bytes, ...) -- CPU_ReadMem(96 bytes @ 0x40004400) - Data: C0 00 00 00 00 00 00 00 00 00 00 00 00 00 00 00 ...  returns 0x00 (0002ms, 0629ms total)
T2DF8 002:008 JLINK_SetBPEx(Addr = 0x08000334, Type = 0xFFFFFFF2)  returns 0x00000001 (0000ms, 0629ms total)
T2DF8 002:008 JLINK_Go() -- CPU_WriteMem(4 bytes @ 0xE0002000) -- CPU_WriteMem(4 bytes @ 0xE0002008) -- CPU_WriteMem(4 bytes @ 0xE000200C) -- CPU_WriteMem(4 bytes @ 0xE0002010) -- CPU_WriteMem(4 bytes @ 0xE0002014) -- CPU_WriteMem(4 bytes @ 0xE0002018) -- CPU_WriteMem(4 bytes @ 0xE000201C) -- CPU_WriteMem(4 bytes @ 0xE0001004) (0004ms, 0633ms total)
T2DF8 002:112 JLINK_IsHalted()  returns TRUE (0002ms, 0635ms total)
T2DF8 002:114 JLINK_Halt()  returns 0x00 (0000ms, 0633ms total)
T2DF8 002:114 JLINK_IsHalted()  returns TRUE (0000ms, 0633ms total)
T2DF8 002:114 JLINK_IsHalted()  returns TRUE (0000ms, 0633ms total)
T2DF8 002:114 JLINK_IsHalted()  returns TRUE (0000ms, 0633ms total)
T2DF8 002:114 JLINK_ReadReg(R15 (PC))  returns 0x08000334 (0000ms, 0633ms total)
T2DF8 002:114 JLINK_ReadReg(XPSR)  returns 0x61000000 (0000ms, 0633ms total)
T2DF8 002:114 JLINK_ClrBPEx(BPHandle = 0x00000001)  returns 0x00 (0000ms, 0633ms total)
T2DF8 002:114 JLINK_ReadMemU32(0xE000ED30, 0x0001 Items, ...) -- CPU_ReadMem(4 bytes @ 0xE000ED30) - Data: 03 00 00 00  returns 0x01 (0000ms, 0633ms total)
T2DF8 002:114 JLINK_ReadMemU32(0xE0001028, 0x0001 Items, ...) -- CPU_ReadMem(4 bytes @ 0xE0001028) - Data: 00 00 00 00  returns 0x01 (0001ms, 0634ms total)
T2DF8 002:115 JLINK_ReadMemU32(0xE0001038, 0x0001 Items, ...) -- CPU_ReadMem(4 bytes @ 0xE0001038) - Data: 00 02 00 00  returns 0x01 (0000ms, 0634ms total)
T2DF8 002:115 JLINK_ReadMemU32(0xE0001048, 0x0001 Items, ...) -- CPU_ReadMem(4 bytes @ 0xE0001048) - Data: 00 00 00 00  returns 0x01 (0000ms, 0634ms total)
T2DF8 002:115 JLINK_ReadMemU32(0xE0001058, 0x0001 Items, ...) -- CPU_ReadMem(4 bytes @ 0xE0001058) - Data: 00 00 00 00  returns 0x01 (0001ms, 0635ms total)
T2DF8 002:116 JLINK_ReadReg(R0)  returns 0x08000335 (0000ms, 0635ms total)
T2DF8 002:116 JLINK_ReadReg(R1)  returns 0x20000408 (0000ms, 0635ms total)
T2DF8 002:116 JLINK_ReadReg(R2)  returns 0x00000000 (0000ms, 0635ms total)
T2DF8 002:116 JLINK_ReadReg(R3)  returns 0x08000235 (0000ms, 0635ms total)
T2DF8 002:116 JLINK_ReadReg(R4)  returns 0x08000A68 (0000ms, 0635ms total)
T2DF8 002:116 JLINK_ReadReg(R5)  returns 0x08000A68 (0000ms, 0635ms total)
T2DF8 002:116 JLINK_ReadReg(R6)  returns 0x00000000 (0000ms, 0635ms total)
T2DF8 002:116 JLINK_ReadReg(R7)  returns 0x00000000 (0000ms, 0635ms total)
T2DF8 002:116 JLINK_ReadReg(R8)  returns 0x00000000 (0000ms, 0635ms total)
T2DF8 002:116 JLINK_ReadReg(R9)  returns 0x20000134 (0000ms, 0635ms total)
T2DF8 002:116 JLINK_ReadReg(R10)  returns 0x00000000 (0000ms, 0635ms total)
T2DF8 002:116 JLINK_ReadReg(R11)  returns 0x00000000 (0000ms, 0635ms total)
T2DF8 002:116 JLINK_ReadReg(R12)  returns 0x00000000 (0000ms, 0635ms total)
T2DF8 002:116 JLINK_ReadReg(R13 (SP))  returns 0x20000408 (0000ms, 0635ms total)
T2DF8 002:116 JLINK_ReadReg(R14)  returns 0x08000185 (0000ms, 0635ms total)
T2DF8 002:116 JLINK_ReadReg(R15 (PC))  returns 0x08000334 (0000ms, 0635ms total)
T2DF8 002:116 JLINK_ReadReg(XPSR)  returns 0x61000000 (0000ms, 0635ms total)
T2DF8 002:116 JLINK_ReadReg(MSP)  returns 0x20000408 (0000ms, 0635ms total)
T2DF8 002:116 JLINK_ReadReg(PSP)  returns 0x20000800 (0000ms, 0635ms total)
T2DF8 002:116 JLINK_ReadReg(CFBP)  returns 0x00000000 (0000ms, 0635ms total)
T2DF8 002:116 JLINK_ReadReg(FPSCR)  returns 0x00000000 (0004ms, 0639ms total)
T2DF8 002:120 JLINK_ReadReg(FPS0)  returns 0xFFC806E7 (0000ms, 0639ms total)
T2DF8 002:120 JLINK_ReadReg(FPS1)  returns 0xCF58DBD8 (0000ms, 0639ms total)
T2DF8 002:120 JLINK_ReadReg(FPS2)  returns 0x378729BA (0000ms, 0639ms total)
T2DF8 002:120 JLINK_ReadReg(FPS3)  returns 0x59486304 (0000ms, 0639ms total)
T2DF8 002:120 JLINK_ReadReg(FPS4)  returns 0xB0A0B61F (0000ms, 0639ms total)
T2DF8 002:120 JLINK_ReadReg(FPS5)  returns 0xBD97FE02 (0000ms, 0639ms total)
T2DF8 002:120 JLINK_ReadReg(FPS6)  returns 0x5E9FF2EE (0000ms, 0639ms total)
T2DF8 002:120 JLINK_ReadReg(FPS7)  returns 0xFEB158CE (0000ms, 0639ms total)
T2DF8 002:120 JLINK_ReadReg(FPS8)  returns 0x51C3B12B (0000ms, 0639ms total)
T2DF8 002:120 JLINK_ReadReg(FPS9)  returns 0x32BA0CF3 (0000ms, 0639ms total)
T2DF8 002:120 JLINK_ReadReg(FPS10)  returns 0xCDF5F234 (0001ms, 0640ms total)
T2DF8 002:121 JLINK_ReadReg(FPS11)  returns 0xB1279DE7 (0000ms, 0640ms total)
T2DF8 002:121 JLINK_ReadReg(FPS12)  returns 0x39AAE12F (0000ms, 0640ms total)
T2DF8 002:121 JLINK_ReadReg(FPS13)  returns 0x55F8C1D6 (0000ms, 0640ms total)
T2DF8 002:121 JLINK_ReadReg(FPS14)  returns 0x4F6EFACB (0000ms, 0640ms total)
T2DF8 002:121 JLINK_ReadReg(FPS15)  returns 0x9FAE6A54 (0000ms, 0640ms total)
T2DF8 002:121 JLINK_ReadReg(FPS16)  returns 0x5C35BB1F (0000ms, 0640ms total)
T2DF8 002:121 JLINK_ReadReg(FPS17)  returns 0xAC63FE26 (0000ms, 0640ms total)
T2DF8 002:121 JLINK_ReadReg(FPS18)  returns 0x11BE4BBE (0000ms, 0640ms total)
T2DF8 002:121 JLINK_ReadReg(FPS19)  returns 0x015DD42E (0000ms, 0640ms total)
T2DF8 002:121 JLINK_ReadReg(FPS20)  returns 0xCD0089CC (0000ms, 0640ms total)
T2DF8 002:121 JLINK_ReadReg(FPS21)  returns 0xFC19EF22 (0000ms, 0640ms total)
T2DF8 002:121 JLINK_ReadReg(FPS22)  returns 0x926D971D (0000ms, 0640ms total)
T2DF8 002:121 JLINK_ReadReg(FPS23)  returns 0xBE602FB1 (0000ms, 0640ms total)
T2DF8 002:121 JLINK_ReadReg(FPS24)  returns 0x3032ED79 (0000ms, 0640ms total)
T2DF8 002:121 JLINK_ReadReg(FPS25)  returns 0xF6FF9E9B (0000ms, 0640ms total)
T2DF8 002:121 JLINK_ReadReg(FPS26)  returns 0x92D3FB19 (0001ms, 0641ms total)
T2DF8 002:122 JLINK_ReadReg(FPS27)  returns 0xA2E8945C (0000ms, 0641ms total)
T2DF8 002:122 JLINK_ReadReg(FPS28)  returns 0xAC6CE5B3 (0000ms, 0641ms total)
T2DF8 002:122 JLINK_ReadReg(FPS29)  returns 0x277EC770 (0000ms, 0641ms total)
T2DF8 002:122 JLINK_ReadReg(FPS30)  returns 0x37BB8164 (0000ms, 0641ms total)
T2DF8 002:122 JLINK_ReadReg(FPS31)  returns 0xCD7200BF (0000ms, 0641ms total)
T5460 002:142 JLINK_ReadMem (0x08000334, 0x003C Bytes, ...) -- CPU_ReadMem(128 bytes @ 0x08000300) -- Updating DA cache (128 bytes @ 0x08000300) -- Read from DA cache (60 bytes @ 0x08000334) - Data: 00 24 01 25 00 F0 38 FB 00 F0 D8 F8 17 E0 28 20 ...  returns 0x00 (0001ms, 0642ms total)
T2DF8 038:339 JLINK_Go() -- CPU_WriteMem(4 bytes @ 0xE0002008) (0002ms, 0644ms total)
T2DF8 038:441 JLINK_IsHalted()  returns FALSE (0001ms, 0645ms total)
T2DF8 038:543 JLINK_IsHalted()  returns FALSE (0001ms, 0645ms total)
T2DF8 038:644 JLINK_IsHalted()  returns FALSE (0000ms, 0644ms total)
T2DF8 038:745 JLINK_IsHalted()  returns FALSE (0000ms, 0644ms total)
T2DF8 038:846 JLINK_IsHalted()  returns FALSE (0000ms, 0644ms total)
T2DF8 038:948 JLINK_IsHalted()  returns FALSE (0000ms, 0644ms total)
T2DF8 039:049 JLINK_IsHalted()  returns FALSE (0000ms, 0644ms total)
T2DF8 039:151 JLINK_IsHalted()  returns FALSE (0000ms, 0644ms total)
T2DF8 039:252 JLINK_IsHalted()  returns FALSE (0000ms, 0644ms total)
T2DF8 039:352 JLINK_IsHalted()  returns FALSE (0000ms, 0644ms total)
T2DF8 039:453 JLINK_IsHalted()  returns FALSE (0001ms, 0645ms total)
T2DF8 039:554 JLINK_IsHalted()  returns FALSE (0000ms, 0644ms total)
T2DF8 039:656 JLINK_IsHalted()  returns FALSE (0000ms, 0644ms total)
T2DF8 039:758 JLINK_IsHalted()  returns FALSE (0000ms, 0644ms total)
T2DF8 039:859 JLINK_IsHalted()  returns FALSE (0001ms, 0645ms total)
T2DF8 039:960 JLINK_IsHalted()  returns FALSE (0001ms, 0645ms total)
T2DF8 040:062 JLINK_IsHalted()  returns FALSE (0000ms, 0644ms total)
T2DF8 040:162 JLINK_IsHalted()  returns FALSE (0000ms, 0644ms total)
T2DF8 040:263 JLINK_IsHalted()  returns FALSE (0000ms, 0644ms total)
T2DF8 040:363 JLINK_IsHalted()  returns FALSE (0001ms, 0645ms total)
T2DF8 040:465 JLINK_IsHalted()  returns FALSE (0000ms, 0644ms total)
T2DF8 040:566 JLINK_IsHalted()  returns FALSE (0001ms, 0645ms total)
T2DF8 040:668 JLINK_IsHalted()  returns FALSE (0001ms, 0645ms total)
T2DF8 040:769 JLINK_IsHalted()  returns FALSE (0000ms, 0644ms total)
T2DF8 040:871 JLINK_IsHalted()  returns FALSE (0000ms, 0644ms total)
T2DF8 040:972 JLINK_IsHalted()  returns FALSE (0001ms, 0645ms total)
T2DF8 041:075 JLINK_IsHalted()  returns FALSE (0001ms, 0645ms total)
T2DF8 041:176 JLINK_IsHalted()  returns FALSE (0000ms, 0644ms total)
T2DF8 041:277 JLINK_IsHalted()  returns FALSE (0001ms, 0645ms total)
T2DF8 041:379 JLINK_IsHalted()  returns FALSE (0000ms, 0644ms total)
T2DF8 041:480 JLINK_IsHalted()  returns FALSE (0000ms, 0644ms total)
T2DF8 041:581 JLINK_IsHalted()  returns FALSE (0000ms, 0644ms total)
T2DF8 041:682 JLINK_IsHalted()  returns FALSE (0000ms, 0644ms total)
T2DF8 041:783 JLINK_IsHalted()  returns FALSE (0000ms, 0644ms total)
T2DF8 041:884 JLINK_IsHalted()  returns FALSE (0000ms, 0644ms total)
T2DF8 041:986 JLINK_IsHalted()  returns FALSE (0000ms, 0644ms total)
T2DF8 042:087 JLINK_IsHalted()  returns FALSE (0000ms, 0644ms total)
T2DF8 042:188 JLINK_IsHalted()  returns FALSE (0001ms, 0645ms total)
T2DF8 042:289 JLINK_IsHalted()  returns FALSE (0000ms, 0644ms total)
T2DF8 042:390 JLINK_IsHalted()  returns FALSE (0001ms, 0645ms total)
T2DF8 042:492 JLINK_IsHalted()  returns FALSE (0000ms, 0644ms total)
T2DF8 042:593 JLINK_IsHalted()  returns FALSE (0000ms, 0644ms total)
T2DF8 042:694 JLINK_IsHalted()  returns FALSE (0000ms, 0644ms total)
T2DF8 042:795 JLINK_IsHalted()  returns FALSE (0000ms, 0644ms total)
T2DF8 042:896 JLINK_IsHalted()  returns FALSE (0000ms, 0644ms total)
T2DF8 042:998 JLINK_IsHalted()  returns FALSE (0000ms, 0644ms total)
T2DF8 043:100 JLINK_IsHalted()  returns FALSE (0000ms, 0644ms total)
T2DF8 043:201 JLINK_IsHalted()  returns FALSE (0000ms, 0644ms total)
T2DF8 043:302 JLINK_IsHalted()  returns FALSE (0001ms, 0645ms total)
T2DF8 043:404 JLINK_IsHalted()  returns FALSE (0000ms, 0644ms total)
T2DF8 043:505 JLINK_IsHalted()  returns FALSE (0000ms, 0644ms total)
T2DF8 043:606 JLINK_IsHalted()  returns FALSE (0001ms, 0645ms total)
T2DF8 043:708 JLINK_IsHalted()  returns FALSE (0000ms, 0644ms total)
T2DF8 043:809 JLINK_IsHalted()  returns FALSE (0000ms, 0644ms total)
T2DF8 043:910 JLINK_IsHalted()  returns FALSE (0000ms, 0644ms total)
T2DF8 044:011 JLINK_IsHalted()  returns FALSE (0000ms, 0644ms total)
T2DF8 044:113 JLINK_IsHalted()  returns FALSE (0000ms, 0644ms total)
T2DF8 044:213 JLINK_IsHalted()  returns FALSE (0000ms, 0644ms total)
T2DF8 044:315 JLINK_IsHalted()  returns FALSE (0000ms, 0644ms total)
T2DF8 044:416 JLINK_IsHalted()  returns FALSE (0001ms, 0645ms total)
T2DF8 044:518 JLINK_IsHalted()  returns FALSE (0000ms, 0644ms total)
T2DF8 044:619 JLINK_IsHalted()  returns FALSE (0000ms, 0644ms total)
T2DF8 044:720 JLINK_IsHalted()  returns FALSE (0000ms, 0644ms total)
T2DF8 044:821 JLINK_IsHalted()  returns FALSE (0001ms, 0645ms total)
T2DF8 044:923 JLINK_IsHalted()  returns FALSE (0000ms, 0644ms total)
T2DF8 045:023 JLINK_Halt()  returns 0x00 (0002ms, 0646ms total)
T2DF8 045:025 JLINK_IsHalted()  returns TRUE (0000ms, 0646ms total)
T2DF8 045:025 JLINK_IsHalted()  returns TRUE (0000ms, 0646ms total)
T2DF8 045:025 JLINK_IsHalted()  returns TRUE (0000ms, 0646ms total)
T2DF8 045:025 JLINK_ReadReg(R15 (PC))  returns 0x0800024E (0000ms, 0646ms total)
T2DF8 045:026 JLINK_ReadReg(XPSR)  returns 0x21000000 (0000ms, 0647ms total)
T2DF8 045:026 JLINK_ReadMemU32(0xE000ED30, 0x0001 Items, ...) -- CPU_ReadMem(4 bytes @ 0xE000ED30) - Data: 01 00 00 00  returns 0x01 (0000ms, 0647ms total)
T2DF8 045:026 JLINK_ReadMemU32(0xE0001028, 0x0001 Items, ...) -- CPU_ReadMem(4 bytes @ 0xE0001028) - Data: 00 00 00 00  returns 0x01 (0001ms, 0648ms total)
T2DF8 045:027 JLINK_ReadMemU32(0xE0001038, 0x0001 Items, ...) -- CPU_ReadMem(4 bytes @ 0xE0001038) - Data: 00 02 00 00  returns 0x01 (0000ms, 0648ms total)
T2DF8 045:027 JLINK_ReadMemU32(0xE0001048, 0x0001 Items, ...) -- CPU_ReadMem(4 bytes @ 0xE0001048) - Data: 00 00 00 00  returns 0x01 (0001ms, 0649ms total)
T2DF8 045:028 JLINK_ReadMemU32(0xE0001058, 0x0001 Items, ...) -- CPU_ReadMem(4 bytes @ 0xE0001058) - Data: 00 00 00 00  returns 0x01 (0000ms, 0649ms total)
T2DF8 045:028 JLINK_ReadReg(R0)  returns 0x00000028 (0000ms, 0649ms total)
T2DF8 045:028 JLINK_ReadReg(R1)  returns 0x00000026 (0000ms, 0649ms total)
T2DF8 045:028 JLINK_ReadReg(R2)  returns 0x00000172 (0000ms, 0649ms total)
T2DF8 045:028 JLINK_ReadReg(R3)  returns 0x0000000B (0000ms, 0649ms total)
T2DF8 045:028 JLINK_ReadReg(R4)  returns 0x00000172 (0000ms, 0649ms total)
T2DF8 045:028 JLINK_ReadReg(R5)  returns 0x00000000 (0000ms, 0649ms total)
T2DF8 045:028 JLINK_ReadReg(R6)  returns 0x00000000 (0000ms, 0649ms total)
T2DF8 045:028 JLINK_ReadReg(R7)  returns 0x00000000 (0000ms, 0649ms total)
T2DF8 045:028 JLINK_ReadReg(R8)  returns 0x00000000 (0000ms, 0649ms total)
T2DF8 045:028 JLINK_ReadReg(R9)  returns 0x20000134 (0000ms, 0649ms total)
T2DF8 045:028 JLINK_ReadReg(R10)  returns 0x00000000 (0001ms, 0650ms total)
T2DF8 045:029 JLINK_ReadReg(R11)  returns 0x00000000 (0000ms, 0650ms total)
T2DF8 045:029 JLINK_ReadReg(R12)  returns 0x00000000 (0000ms, 0650ms total)
T2DF8 045:029 JLINK_ReadReg(R13 (SP))  returns 0x20000408 (0000ms, 0650ms total)
T2DF8 045:029 JLINK_ReadReg(R14)  returns 0x08000349 (0000ms, 0650ms total)
T2DF8 045:029 JLINK_ReadReg(R15 (PC))  returns 0x0800024E (0000ms, 0650ms total)
T2DF8 045:029 JLINK_ReadReg(XPSR)  returns 0x21000000 (0000ms, 0650ms total)
T2DF8 045:029 JLINK_ReadReg(MSP)  returns 0x20000408 (0000ms, 0650ms total)
T2DF8 045:029 JLINK_ReadReg(PSP)  returns 0x20000800 (0000ms, 0650ms total)
T2DF8 045:029 JLINK_ReadReg(CFBP)  returns 0x00000000 (0000ms, 0650ms total)
T2DF8 045:029 JLINK_ReadReg(FPSCR)  returns 0x00000000 (0003ms, 0653ms total)
T2DF8 045:032 JLINK_ReadReg(FPS0)  returns 0xFFC806E7 (0000ms, 0653ms total)
T2DF8 045:032 JLINK_ReadReg(FPS1)  returns 0xCF58DBD8 (0000ms, 0653ms total)
T2DF8 045:032 JLINK_ReadReg(FPS2)  returns 0x378729BA (0000ms, 0653ms total)
T2DF8 045:032 JLINK_ReadReg(FPS3)  returns 0x59486304 (0000ms, 0653ms total)
T2DF8 045:032 JLINK_ReadReg(FPS4)  returns 0xB0A0B61F (0000ms, 0653ms total)
T2DF8 045:032 JLINK_ReadReg(FPS5)  returns 0xBD97FE02 (0000ms, 0653ms total)
T2DF8 045:032 JLINK_ReadReg(FPS6)  returns 0x5E9FF2EE (0000ms, 0653ms total)
T2DF8 045:032 JLINK_ReadReg(FPS7)  returns 0xFEB158CE (0000ms, 0653ms total)
T2DF8 045:032 JLINK_ReadReg(FPS8)  returns 0x51C3B12B (0000ms, 0653ms total)
T2DF8 045:032 JLINK_ReadReg(FPS9)  returns 0x32BA0CF3 (0000ms, 0653ms total)
T2DF8 045:032 JLINK_ReadReg(FPS10)  returns 0xCDF5F234 (0000ms, 0653ms total)
T2DF8 045:032 JLINK_ReadReg(FPS11)  returns 0xB1279DE7 (0000ms, 0653ms total)
T2DF8 045:032 JLINK_ReadReg(FPS12)  returns 0x39AAE12F (0000ms, 0653ms total)
T2DF8 045:032 JLINK_ReadReg(FPS13)  returns 0x55F8C1D6 (0000ms, 0653ms total)
T2DF8 045:032 JLINK_ReadReg(FPS14)  returns 0x4F6EFACB (0000ms, 0653ms total)
T2DF8 045:032 JLINK_ReadReg(FPS15)  returns 0x9FAE6A54 (0000ms, 0653ms total)
T2DF8 045:032 JLINK_ReadReg(FPS16)  returns 0x5C35BB1F (0000ms, 0653ms total)
T2DF8 045:033 JLINK_ReadReg(FPS17)  returns 0xAC63FE26 (0000ms, 0654ms total)
T2DF8 045:033 JLINK_ReadReg(FPS18)  returns 0x11BE4BBE (0000ms, 0654ms total)
T2DF8 045:033 JLINK_ReadReg(FPS19)  returns 0x015DD42E (0000ms, 0654ms total)
T2DF8 045:033 JLINK_ReadReg(FPS20)  returns 0xCD0089CC (0000ms, 0654ms total)
T2DF8 045:033 JLINK_ReadReg(FPS21)  returns 0xFC19EF22 (0000ms, 0654ms total)
T2DF8 045:033 JLINK_ReadReg(FPS22)  returns 0x926D971D (0000ms, 0654ms total)
T2DF8 045:033 JLINK_ReadReg(FPS23)  returns 0xBE602FB1 (0000ms, 0654ms total)
T2DF8 045:033 JLINK_ReadReg(FPS24)  returns 0x3032ED79 (0000ms, 0654ms total)
T2DF8 045:033 JLINK_ReadReg(FPS25)  returns 0xF6FF9E9B (0000ms, 0654ms total)
T2DF8 045:033 JLINK_ReadReg(FPS26)  returns 0x92D3FB19 (0000ms, 0654ms total)
T2DF8 045:033 JLINK_ReadReg(FPS27)  returns 0xA2E8945C (0000ms, 0654ms total)
T2DF8 045:033 JLINK_ReadReg(FPS28)  returns 0xAC6CE5B3 (0000ms, 0654ms total)
T2DF8 045:033 JLINK_ReadReg(FPS29)  returns 0x277EC770 (0000ms, 0654ms total)
T2DF8 045:033 JLINK_ReadReg(FPS30)  returns 0x37BB8164 (0000ms, 0654ms total)
T2DF8 045:033 JLINK_ReadReg(FPS31)  returns 0xCD7200BF (0000ms, 0654ms total)
T5460 045:041 JLINK_ReadMem (0x0800024E, 0x0002 Bytes, ...) -- CPU_ReadMem(64 bytes @ 0x08000240) -- Updating DA cache (64 bytes @ 0x08000240) -- Read from DA cache (2 bytes @ 0x0800024E) - Data: 00 29  returns 0x00 (0001ms, 0655ms total)
T5460 045:042 JLINK_ReadMem (0x08000250, 0x003C Bytes, ...) -- CPU_ReadMem(64 bytes @ 0x08000280) -- Updating DA cache (64 bytes @ 0x08000280) -- Read from DA cache (60 bytes @ 0x08000250) - Data: FB D1 70 47 00 00 00 20 04 48 00 68 20 B1 03 48 ...  returns 0x00 (0000ms, 0655ms total)
T5460 045:112 JLINK_ReadMem (0x08000248, 0x003C Bytes, ...) -- Read from DA cache (60 bytes @ 0x08000248) - Data: 00 BF 02 49 09 68 00 29 FB D1 70 47 00 00 00 20 ...  returns 0x00 (0000ms, 0655ms total)
T5460 045:700 JLINK_Close() >0x42 TIF> >0x28 TIF> >0x0D TIF> >0x21 TIF> (0002ms, 0657ms total)
T5460 045:700  (0002ms, 0657ms total)
T5460 045:700 Closed (0002ms, 0657ms total)
